T4C94 000:002.110   SEGGER J-Link V9.42 Log File
T4C94 000:002.217   DLL Compiled: May  6 2026 12:25:27
T4C94 000:002.222   Logging started @ 2026-07-27 12:46
T4C94 000:002.226   Process: C:\Users\lingk\.eclipse\com.renesas.platform_1584587709\DebugComp\RA\e2-server-gdb.exe
T4C94 000:002.234 - 2.230ms 
T4C94 000:002.244 JLINK_GetDLLVersion()
T4C94 000:002.248 - 0.005ms returns 94200
T4C94 000:086.407 JLINK_OpenEx(...)
T4C94 000:092.818   Firmware: J-Link OB-RA4M2 compiled Dec 10 2025 15:52:53
T4C94 000:093.547   Firmware: J-Link OB-RA4M2 compiled Dec 10 2025 15:52:53
T4C94 000:113.608   Hardware: V1.00
T4C94 000:113.639   S/N: 1080068464
T4C94 000:113.647   OEM: SEGGER
T4C94 000:113.661   Feature(s): None
T4C94 000:114.185   Bootloader: 2021 May 14
T4C94 000:114.536   USB speed mode: Full speed (12 MBit/s)
T4C94 000:114.848   TELNET listener socket opened on port 19021
T4C94 000:115.042   WEBSRV WEBSRV_Init(): Starting webserver thread(s)
T4C94 000:115.280   WEBSRV Webserver running on local port 19080
T4C94 000:115.413   Looking for J-Link GUI Server exe at: C:\Users\lingk\.eclipse\com.renesas.platform_1584587709\DebugComp\RA\ARM\Segger_v9.42.0\JLinkGUIServer.exe
T4C94 000:116.726   Looking for J-Link GUI Server exe at: D:\SEGGER\JLink_V942\JLinkGUIServer.exe
T4C94 000:116.993   Forking J-Link GUI Server: D:\SEGGER\JLink_V942\JLinkGUIServer.exe
T4C94 000:524.636   J-Link GUI Server info: "J-Link GUI server V9.42 "
T4C94 000:594.937 - 508.524ms returns "O.K."
T4C94 000:595.066 JLINK_TIF_Select(JLINKARM_TIF_SWD)
T4C94 000:596.982 - 1.918ms returns 0x00
T4C94 000:597.014 JLINK_ClrRESET()
T4C94 000:597.160 - 0.145ms 
T4C94 000:647.870 JLINK_SetSpeed(1500)
T4C94 000:648.057 - 0.194ms 
T4C94 000:648.451 JLINK_CORESIGHT_Configure(PerformTIFInit=0)
T4C94 000:648.815 - 0.365ms returns 0
T4C94 000:648.827 JLINK_CORESIGHT_ReadAPDPReg(DP reg 0x00)
T4C94 000:649.209   Value=0x6BA02477
T4C94 000:649.216 - 0.390ms returns 0
T4C94 000:649.224 JLINK_CORESIGHT_WriteAPDPReg(DP reg 0x00, 0x0000001F)
T4C94 000:649.403 - 0.179ms returns 0
T4C94 000:649.409 JLINK_CORESIGHT_ReadAPDPReg(DP reg 0x00)
T4C94 000:649.579   Value=0x6BA02477
T4C94 000:649.586 - 0.177ms returns 0
T4C94 000:649.592 JLINK_CORESIGHT_WriteAPDPReg(DP reg 0x02, 0x00000000)
T4C94 000:649.765 - 0.173ms returns 0
T4C94 000:649.770 JLINK_CORESIGHT_WriteAPDPReg(DP reg 0x01, 0x50000000)
T4C94 000:649.964 - 0.192ms returns 0
T4C94 000:649.997 JLINK_CORESIGHT_ReadAPDPReg(DP reg 0x01)
T4C94 000:650.184   Value=0xF0000000
T4C94 000:650.197 - 0.200ms returns 0
T4C94 000:650.205 JLINK_CORESIGHT_WriteAPDPReg(DP reg 0x00, 0x0000001F)
T4C94 000:650.397 - 0.192ms returns 0
T4C94 000:650.407 JLINK_CORESIGHT_ReadAPDPReg(DP reg 0x00)
T4C94 000:650.579   Value=0x6BA02477
T4C94 000:650.596 - 0.189ms returns 0
T4C94 000:650.604 JLINK_CORESIGHT_WriteAPDPReg(DP reg 0x01, 0x54000000)
T4C94 000:650.790 - 0.185ms returns 0
T4C94 000:650.807 JLINK_CORESIGHT_WriteAPDPReg(DP reg 0x01, 0x50000F00)
T4C94 000:650.985 - 0.178ms returns 0
T4C94 000:650.993 JLINK_CORESIGHT_WriteAPDPReg(DP reg 0x02, 0x01000000)
T4C94 000:651.162 - 0.168ms returns 0
T4C94 000:651.168 JLINK_CORESIGHT_WriteAPDPReg(AP reg 0x00, 0x80000002)
T4C94 000:651.378 - 0.210ms returns 0
T4C94 000:651.387 JLINK_CORESIGHT_WriteAPDPReg(AP reg 0x01, 0x80011100)
T4C94 000:651.556 - 0.168ms returns 0
T4C94 000:651.564 JLINK_CORESIGHT_WriteAPDPReg(AP reg 0x03, 0x000000A5)
T4C94 000:651.734 - 0.170ms returns 0
T4C94 000:651.741 JLINK_CORESIGHT_WriteAPDPReg(AP reg 0x00, 0x80000002)
T4C94 000:651.914 - 0.173ms returns 0
T4C94 000:651.923 JLINK_CORESIGHT_WriteAPDPReg(AP reg 0x01, 0x80011100)
T4C94 000:652.094 - 0.170ms returns 0
T4C94 000:652.100 JLINK_CORESIGHT_ReadAPDPReg(AP reg 0x03)
T4C94 000:652.376   Value=0x000000A5
T4C94 000:652.385 - 0.284ms returns 0
T4C94 000:652.392 JLINK_ClrTMS()
T4C94 000:652.446 - 0.054ms 
T4C94 000:657.794 JLINK_SetTCK()
T4C94 000:657.900 - 0.105ms returns 0
T4C94 000:662.951 JLINK_SetRESET()
T4C94 000:663.049 - 0.097ms 
T4C94 000:863.252 JLINK_CORESIGHT_WriteAPDPReg(AP reg 0x00, 0x80000002)
T4C94 000:863.546 - 0.294ms returns 0
T4C94 000:863.566 JLINK_CORESIGHT_WriteAPDPReg(AP reg 0x01, 0x80011100)
T4C94 000:863.754 - 0.188ms returns 0
T4C94 000:863.762 JLINK_CORESIGHT_ReadAPDPReg(AP reg 0x03)
T4C94 000:863.983   Value=0x00000000
T4C94 000:863.992 - 0.229ms returns 0
T4C94 000:864.000 JLINK_CORESIGHT_WriteAPDPReg(AP reg 0x00, 0x80000002)
T4C94 000:864.179 - 0.178ms returns 0
T4C94 000:864.186 JLINK_CORESIGHT_WriteAPDPReg(AP reg 0x01, 0x80011140)
T4C94 000:864.375 - 0.189ms returns 0
T4C94 000:864.384 JLINK_CORESIGHT_ReadAPDPReg(AP reg 0x03)
T4C94 000:864.604   Value=0x00000002
T4C94 000:864.612 - 0.228ms returns 0
T4C94 000:864.619 JLINK_CORESIGHT_WriteAPDPReg(AP reg 0x00, 0x80000002)
T4C94 000:864.798 - 0.179ms returns 0
T4C94 000:864.804 JLINK_CORESIGHT_WriteAPDPReg(AP reg 0x01, 0x80011120)
T4C94 000:864.972 - 0.168ms returns 0
T4C94 000:864.978 JLINK_CORESIGHT_WriteAPDPReg(AP reg 0x03, 0x00000055)
T4C94 000:865.147 - 0.168ms returns 0
T4C94 000:865.153 JLINK_CORESIGHT_WriteAPDPReg(AP reg 0x00, 0x80000002)
T4C94 000:865.449 - 0.295ms returns 0
T4C94 000:865.467 JLINK_CORESIGHT_WriteAPDPReg(AP reg 0x01, 0x80011140)
T4C94 000:865.644 - 0.177ms returns 0
T4C94 000:865.651 JLINK_CORESIGHT_ReadAPDPReg(AP reg 0x03)
T4C94 000:865.880   Value=0x00000002
T4C94 000:865.887 - 0.235ms returns 0
T4C94 000:865.892 JLINK_CORESIGHT_ReadAPDPReg(AP reg 0x03)
T4C94 000:866.097   Value=0x00000002
T4C94 000:866.104 - 0.211ms returns 0
T4C94 000:866.109 JLINK_CORESIGHT_ReadAPDPReg(AP reg 0x03)
T4C94 000:866.374   Value=0x00000002
T4C94 000:866.380 - 0.271ms returns 0
T4C94 000:866.385 JLINK_CORESIGHT_ReadAPDPReg(AP reg 0x03)
T4C94 000:866.662   Value=0x00000002
T4C94 000:866.682 - 0.296ms returns 0
T4C94 000:866.694 JLINK_CORESIGHT_ReadAPDPReg(AP reg 0x03)
T4C94 000:866.912   Value=0x00000002
T4C94 000:866.919 - 0.225ms returns 0
T4C94 000:866.925 JLINK_CORESIGHT_ReadAPDPReg(AP reg 0x03)
T4C94 000:867.131   Value=0x00000002
T4C94 000:867.137 - 0.212ms returns 0
T4C94 000:867.143 JLINK_CORESIGHT_ReadAPDPReg(AP reg 0x03)
T4C94 000:867.375   Value=0x00000002
T4C94 000:867.382 - 0.238ms returns 0
T4C94 000:867.387 JLINK_CORESIGHT_ReadAPDPReg(AP reg 0x03)
T4C94 000:867.597   Value=0x00000002
T4C94 000:867.604 - 0.217ms returns 0
T4C94 000:867.609 JLINK_CORESIGHT_ReadAPDPReg(AP reg 0x03)
T4C94 000:867.814   Value=0x00000002
T4C94 000:867.821 - 0.211ms returns 0
T4C94 000:867.826 JLINK_CORESIGHT_ReadAPDPReg(AP reg 0x03)
T4C94 000:868.030   Value=0x00000002
T4C94 000:868.037 - 0.210ms returns 0
T4C94 000:868.042 JLINK_CORESIGHT_ReadAPDPReg(AP reg 0x03)
T4C94 000:868.241   Value=0x00000002
T4C94 000:868.247 - 0.205ms returns 0
T4C94 000:868.253 JLINK_CORESIGHT_ReadAPDPReg(AP reg 0x03)
T4C94 000:868.536   Value=0x00000002
T4C94 000:868.549 - 0.296ms returns 0
T4C94 000:868.558 JLINK_CORESIGHT_ReadAPDPReg(AP reg 0x03)
T4C94 000:868.772   Value=0x00000002
T4C94 000:868.778 - 0.221ms returns 0
T4C94 000:868.784 JLINK_CORESIGHT_ReadAPDPReg(AP reg 0x03)
T4C94 000:868.989   Value=0x00000002
T4C94 000:868.996 - 0.212ms returns 0
T4C94 000:869.001 JLINK_CORESIGHT_ReadAPDPReg(AP reg 0x03)
T4C94 000:869.206   Value=0x00000002
T4C94 000:869.213 - 0.211ms returns 0
T4C94 000:869.218 JLINK_CORESIGHT_ReadAPDPReg(AP reg 0x03)
T4C94 000:869.423   Value=0x00000002
T4C94 000:869.429 - 0.211ms returns 0
T4C94 000:869.435 JLINK_CORESIGHT_ReadAPDPReg(AP reg 0x03)
T4C94 000:869.643   Value=0x00000002
T4C94 000:869.651 - 0.216ms returns 0
T4C94 000:869.658 JLINK_CORESIGHT_ReadAPDPReg(AP reg 0x03)
T4C94 000:869.865   Value=0x00000002
T4C94 000:869.873 - 0.215ms returns 0
T4C94 000:869.880 JLINK_CORESIGHT_ReadAPDPReg(AP reg 0x03)
T4C94 000:870.098   Value=0x00000002
T4C94 000:870.105 - 0.225ms returns 0
T4C94 000:870.112 JLINK_CORESIGHT_ReadAPDPReg(AP reg 0x03)
T4C94 000:870.375   Value=0x00000002
T4C94 000:870.383 - 0.271ms returns 0
T4C94 000:870.390 JLINK_CORESIGHT_ReadAPDPReg(AP reg 0x03)
T4C94 000:870.605   Value=0x00000002
T4C94 000:870.613 - 0.223ms returns 0
T4C94 000:870.625 JLINK_CORESIGHT_ReadAPDPReg(AP reg 0x03)
T4C94 000:870.859   Value=0x00000002
T4C94 000:870.876 - 0.251ms returns 0
T4C94 000:870.886 JLINK_CORESIGHT_ReadAPDPReg(AP reg 0x03)
T4C94 000:871.103   Value=0x00000002
T4C94 000:871.112 - 0.226ms returns 0
T4C94 000:871.118 JLINK_CORESIGHT_ReadAPDPReg(AP reg 0x03)
T4C94 000:871.374   Value=0x00000002
T4C94 000:871.381 - 0.263ms returns 0
T4C94 000:871.386 JLINK_CORESIGHT_ReadAPDPReg(AP reg 0x03)
T4C94 000:871.591   Value=0x00000002
T4C94 000:871.597 - 0.211ms returns 0
T4C94 000:871.603 JLINK_CORESIGHT_ReadAPDPReg(AP reg 0x03)
T4C94 000:871.807   Value=0x00000002
T4C94 000:871.813 - 0.210ms returns 0
T4C94 000:871.819 JLINK_CORESIGHT_ReadAPDPReg(AP reg 0x03)
T4C94 000:872.026   Value=0x00000002
T4C94 000:872.033 - 0.214ms returns 0
T4C94 000:872.039 JLINK_CORESIGHT_ReadAPDPReg(AP reg 0x03)
T4C94 000:872.237   Value=0x00000002
T4C94 000:872.243 - 0.204ms returns 0
T4C94 000:872.249 JLINK_CORESIGHT_ReadAPDPReg(AP reg 0x03)
T4C94 000:872.456   Value=0x00000002
T4C94 000:872.472 - 0.223ms returns 0
T4C94 000:872.481 JLINK_CORESIGHT_ReadAPDPReg(AP reg 0x03)
T4C94 000:872.697   Value=0x00000002
T4C94 000:872.704 - 0.223ms returns 0
T4C94 000:872.709 JLINK_CORESIGHT_ReadAPDPReg(AP reg 0x03)
T4C94 000:872.915   Value=0x00000002
T4C94 000:872.921 - 0.212ms returns 0
T4C94 000:872.927 JLINK_CORESIGHT_ReadAPDPReg(AP reg 0x03)
T4C94 000:873.132   Value=0x00000002
T4C94 000:873.140 - 0.212ms returns 0
T4C94 000:873.146 JLINK_CORESIGHT_ReadAPDPReg(AP reg 0x03)
T4C94 000:873.375   Value=0x00000002
T4C94 000:873.383 - 0.236ms returns 0
T4C94 000:873.389 JLINK_CORESIGHT_ReadAPDPReg(AP reg 0x03)
T4C94 000:873.596   Value=0x00000002
T4C94 000:873.604 - 0.214ms returns 0
T4C94 000:873.611 JLINK_CORESIGHT_ReadAPDPReg(AP reg 0x03)
T4C94 000:873.818   Value=0x00000002
T4C94 000:873.826 - 0.215ms returns 0
T4C94 000:873.833 JLINK_CORESIGHT_ReadAPDPReg(AP reg 0x03)
T4C94 000:874.042   Value=0x00000002
T4C94 000:874.049 - 0.216ms returns 0
T4C94 000:874.056 JLINK_CORESIGHT_ReadAPDPReg(AP reg 0x03)
T4C94 000:874.293   Value=0x00000002
T4C94 000:874.313 - 0.256ms returns 0
T4C94 000:874.324 JLINK_CORESIGHT_ReadAPDPReg(AP reg 0x03)
T4C94 000:874.575   Value=0x00000002
T4C94 000:874.592 - 0.268ms returns 0
T4C94 000:874.601 JLINK_CORESIGHT_ReadAPDPReg(AP reg 0x03)
T4C94 000:874.821   Value=0x00000002
T4C94 000:874.838 - 0.237ms returns 0
T4C94 000:874.846 JLINK_CORESIGHT_ReadAPDPReg(AP reg 0x03)
T4C94 000:875.071   Value=0x00000002
T4C94 000:875.084 - 0.237ms returns 0
T4C94 000:875.092 JLINK_CORESIGHT_ReadAPDPReg(AP reg 0x03)
T4C94 000:875.376   Value=0x00000002
T4C94 000:875.389 - 0.297ms returns 0
T4C94 000:875.397 JLINK_CORESIGHT_ReadAPDPReg(AP reg 0x03)
T4C94 000:875.639   Value=0x00000002
T4C94 000:875.656 - 0.259ms returns 0
T4C94 000:875.665 JLINK_CORESIGHT_ReadAPDPReg(AP reg 0x03)
T4C94 000:875.882   Value=0x00000002
T4C94 000:875.895 - 0.229ms returns 0
T4C94 000:875.901 JLINK_CORESIGHT_ReadAPDPReg(AP reg 0x03)
T4C94 000:876.114   Value=0x00000002
T4C94 000:876.123 - 0.222ms returns 0
T4C94 000:876.131 JLINK_CORESIGHT_ReadAPDPReg(AP reg 0x03)
T4C94 000:876.374   Value=0x00000002
T4C94 000:876.384 - 0.253ms returns 0
T4C94 000:876.398 JLINK_CORESIGHT_ReadAPDPReg(AP reg 0x03)
T4C94 000:876.605   Value=0x00000000
T4C94 000:876.614 - 0.215ms returns 0
T4C94 000:876.625 JLINK_CORESIGHT_WriteAPDPReg(AP reg 0x00, 0x80000002)
T4C94 000:876.797 - 0.172ms returns 0
T4C94 000:876.806 JLINK_CORESIGHT_WriteAPDPReg(AP reg 0x01, 0x80011130)
T4C94 000:876.972 - 0.165ms returns 0
T4C94 000:876.981 JLINK_CORESIGHT_ReadAPDPReg(AP reg 0x03)
T4C94 000:877.199   Value=0x000000C6
T4C94 000:877.206 - 0.225ms returns 0
T4C94 000:877.578 JLINK_CORESIGHT_WriteAPDPReg(AP reg 0x00, 0x80000002)
T4C94 000:877.754 - 0.175ms returns 0
T4C94 000:877.768 JLINK_CORESIGHT_WriteAPDPReg(AP reg 0x01, 0x80011140)
T4C94 000:877.946 - 0.178ms returns 0
T4C94 000:877.954 JLINK_CORESIGHT_ReadAPDPReg(AP reg 0x03)
T4C94 000:878.175   Value=0x00000002
T4C94 000:878.190 - 0.236ms returns 0
T4C94 000:878.199 JLINK_CORESIGHT_WriteAPDPReg(AP reg 0x00, 0x80000002)
T4C94 000:878.377 - 0.178ms returns 0
T4C94 000:878.385 JLINK_CORESIGHT_WriteAPDPReg(AP reg 0x01, 0x80011120)
T4C94 000:878.553 - 0.167ms returns 0
T4C94 000:878.561 JLINK_CORESIGHT_WriteAPDPReg(AP reg 0x03, 0x3A010001)
T4C94 000:878.729 - 0.168ms returns 0
T4C94 000:878.737 JLINK_CORESIGHT_WriteAPDPReg(AP reg 0x00, 0x80000002)
T4C94 000:878.904 - 0.166ms returns 0
T4C94 000:878.911 JLINK_CORESIGHT_WriteAPDPReg(AP reg 0x01, 0x80011140)
T4C94 000:879.182 - 0.270ms returns 0
T4C94 000:879.198 JLINK_CORESIGHT_ReadAPDPReg(AP reg 0x03)
T4C94 000:879.433   Value=0x00000002
T4C94 000:879.443 - 0.245ms returns 0
T4C94 000:879.451 JLINK_CORESIGHT_WriteAPDPReg(AP reg 0x00, 0x80000002)
T4C94 000:879.626 - 0.175ms returns 0
T4C94 000:879.634 JLINK_CORESIGHT_WriteAPDPReg(AP reg 0x01, 0x80011120)
T4C94 000:879.802 - 0.168ms returns 0
T4C94 000:879.814 JLINK_CORESIGHT_WriteAPDPReg(AP reg 0x03, 0x000003C5)
T4C94 000:879.993 - 0.180ms returns 0
T4C94 000:880.001 JLINK_CORESIGHT_WriteAPDPReg(AP reg 0x00, 0x80000002)
T4C94 000:880.169 - 0.168ms returns 0
T4C94 000:880.178 JLINK_CORESIGHT_WriteAPDPReg(AP reg 0x01, 0x80011140)
T4C94 000:880.378 - 0.200ms returns 0
T4C94 000:880.385 JLINK_CORESIGHT_ReadAPDPReg(AP reg 0x03)
T4C94 000:880.599   Value=0x00000002
T4C94 000:880.608 - 0.222ms returns 0
T4C94 000:880.615 JLINK_CORESIGHT_ReadAPDPReg(AP reg 0x03)
T4C94 000:880.828   Value=0x00000002
T4C94 000:880.835 - 0.220ms returns 0
T4C94 000:880.841 JLINK_CORESIGHT_ReadAPDPReg(AP reg 0x03)
T4C94 000:881.050   Value=0x00000002
T4C94 000:881.057 - 0.215ms returns 0
T4C94 000:881.062 JLINK_CORESIGHT_ReadAPDPReg(AP reg 0x03)
T4C94 000:881.272   Value=0x00000002
T4C94 000:881.281 - 0.218ms returns 0
T4C94 000:881.288 JLINK_CORESIGHT_ReadAPDPReg(AP reg 0x03)
T4C94 000:881.524   Value=0x00000002
T4C94 000:881.531 - 0.243ms returns 0
T4C94 000:881.536 JLINK_CORESIGHT_ReadAPDPReg(AP reg 0x03)
T4C94 000:881.743   Value=0x00000002
T4C94 000:881.749 - 0.213ms returns 0
T4C94 000:881.755 JLINK_CORESIGHT_ReadAPDPReg(AP reg 0x03)
T4C94 000:881.961   Value=0x00000002
T4C94 000:881.968 - 0.213ms returns 0
T4C94 000:881.973 JLINK_CORESIGHT_ReadAPDPReg(AP reg 0x03)
T4C94 000:882.179   Value=0x00000002
T4C94 000:882.186 - 0.212ms returns 0
T4C94 000:882.191 JLINK_CORESIGHT_ReadAPDPReg(AP reg 0x03)
T4C94 000:882.393   Value=0x00000002
T4C94 000:882.400 - 0.209ms returns 0
T4C94 000:882.405 JLINK_CORESIGHT_ReadAPDPReg(AP reg 0x03)
T4C94 000:882.612   Value=0x00000002
T4C94 000:882.618 - 0.212ms returns 0
T4C94 000:882.623 JLINK_CORESIGHT_ReadAPDPReg(AP reg 0x03)
T4C94 000:882.829   Value=0x00000002
T4C94 000:882.836 - 0.212ms returns 0
T4C94 000:882.841 JLINK_CORESIGHT_ReadAPDPReg(AP reg 0x03)
T4C94 000:883.047   Value=0x00000002
T4C94 000:883.053 - 0.212ms returns 0
T4C94 000:883.059 JLINK_CORESIGHT_ReadAPDPReg(AP reg 0x03)
T4C94 000:883.329   Value=0x00000000
T4C94 000:883.341 - 0.282ms returns 0
T4C94 000:883.349 JLINK_CORESIGHT_WriteAPDPReg(AP reg 0x00, 0x80000002)
T4C94 000:883.533 - 0.183ms returns 0
T4C94 000:883.539 JLINK_CORESIGHT_WriteAPDPReg(AP reg 0x01, 0x80011130)
T4C94 000:883.710 - 0.170ms returns 0
T4C94 000:883.716 JLINK_CORESIGHT_ReadAPDPReg(AP reg 0x03)
T4C94 000:883.930   Value=0x3A2A0081
T4C94 000:883.939 - 0.223ms returns 0
T4C94 000:883.947 JLINK_CORESIGHT_WriteAPDPReg(AP reg 0x00, 0x80000002)
T4C94 000:884.118 - 0.171ms returns 0
T4C94 000:884.125 JLINK_CORESIGHT_WriteAPDPReg(AP reg 0x01, 0x80011140)
T4C94 000:884.377 - 0.251ms returns 0
T4C94 000:884.385 JLINK_CORESIGHT_ReadAPDPReg(AP reg 0x03)
T4C94 000:884.600   Value=0x00000000
T4C94 000:884.609 - 0.224ms returns 0
T4C94 000:884.616 JLINK_CORESIGHT_WriteAPDPReg(AP reg 0x00, 0x80000002)
T4C94 000:884.792 - 0.176ms returns 0
T4C94 000:884.799 JLINK_CORESIGHT_WriteAPDPReg(AP reg 0x01, 0x80011130)
T4C94 000:884.967 - 0.167ms returns 0
T4C94 000:884.975 JLINK_CORESIGHT_ReadAPDPReg(AP reg 0x03)
T4C94 000:885.249   Value=0x808D5B00
T4C94 000:885.258 - 0.283ms returns 0
T4C94 000:885.264 JLINK_CORESIGHT_WriteAPDPReg(AP reg 0x00, 0x80000002)
T4C94 000:885.486 - 0.222ms returns 0
T4C94 000:885.493 JLINK_CORESIGHT_WriteAPDPReg(AP reg 0x01, 0x80011140)
T4C94 000:885.661 - 0.168ms returns 0
T4C94 000:885.681 JLINK_CORESIGHT_ReadAPDPReg(AP reg 0x03)
T4C94 000:885.913   Value=0x00000000
T4C94 000:885.924 - 0.242ms returns 0
T4C94 000:885.931 JLINK_CORESIGHT_WriteAPDPReg(AP reg 0x00, 0x80000002)
T4C94 000:886.104 - 0.173ms returns 0
T4C94 000:886.112 JLINK_CORESIGHT_WriteAPDPReg(AP reg 0x01, 0x80011130)
T4C94 000:886.273 - 0.161ms returns 0
T4C94 000:886.281 JLINK_CORESIGHT_ReadAPDPReg(AP reg 0x03)
T4C94 000:886.530   Value=0x0406070A
T4C94 000:886.537 - 0.256ms returns 0
T4C94 000:886.542 JLINK_CORESIGHT_WriteAPDPReg(AP reg 0x00, 0x80000002)
T4C94 000:886.706 - 0.164ms returns 0
T4C94 000:886.712 JLINK_CORESIGHT_WriteAPDPReg(AP reg 0x01, 0x80011140)
T4C94 000:886.877 - 0.164ms returns 0
T4C94 000:886.885 JLINK_CORESIGHT_ReadAPDPReg(AP reg 0x03)
T4C94 000:887.098   Value=0x00000000
T4C94 000:887.105 - 0.220ms returns 0
T4C94 000:887.111 JLINK_CORESIGHT_WriteAPDPReg(AP reg 0x00, 0x80000002)
T4C94 000:887.275 - 0.164ms returns 0
T4C94 000:887.281 JLINK_CORESIGHT_WriteAPDPReg(AP reg 0x01, 0x80011130)
T4C94 000:887.486 - 0.204ms returns 0
T4C94 000:887.511 JLINK_CORESIGHT_ReadAPDPReg(AP reg 0x03)
T4C94 000:887.738   Value=0x3254540B
T4C94 000:887.750 - 0.238ms returns 0
T4C94 000:887.757 JLINK_CORESIGHT_WriteAPDPReg(AP reg 0x00, 0x80000002)
T4C94 000:887.932 - 0.174ms returns 0
T4C94 000:887.940 JLINK_CORESIGHT_WriteAPDPReg(AP reg 0x01, 0x80011140)
T4C94 000:888.108 - 0.167ms returns 0
T4C94 000:888.122 JLINK_CORESIGHT_ReadAPDPReg(AP reg 0x03)
T4C94 000:888.387   Value=0x00000000
T4C94 000:888.403 - 0.281ms returns 0
T4C94 000:888.413 JLINK_CORESIGHT_WriteAPDPReg(AP reg 0x00, 0x80000002)
T4C94 000:888.603 - 0.190ms returns 0
T4C94 000:888.612 JLINK_CORESIGHT_WriteAPDPReg(AP reg 0x01, 0x80011130)
T4C94 000:888.793 - 0.181ms returns 0
T4C94 000:888.801 JLINK_CORESIGHT_ReadAPDPReg(AP reg 0x03)
T4C94 000:889.028   Value=0x54588559
T4C94 000:889.037 - 0.236ms returns 0
T4C94 000:889.044 JLINK_CORESIGHT_WriteAPDPReg(AP reg 0x00, 0x80000002)
T4C94 000:889.217 - 0.173ms returns 0
T4C94 000:889.224 JLINK_CORESIGHT_WriteAPDPReg(AP reg 0x01, 0x80011140)
T4C94 000:889.384 - 0.159ms returns 0
T4C94 000:889.392 JLINK_CORESIGHT_ReadAPDPReg(AP reg 0x03)
T4C94 000:889.607   Value=0x00000000
T4C94 000:889.615 - 0.223ms returns 0
T4C94 000:889.622 JLINK_CORESIGHT_WriteAPDPReg(AP reg 0x00, 0x80000002)
T4C94 000:889.800 - 0.177ms returns 0
T4C94 000:889.807 JLINK_CORESIGHT_WriteAPDPReg(AP reg 0x01, 0x80011130)
T4C94 000:889.977 - 0.169ms returns 0
T4C94 000:889.994 JLINK_CORESIGHT_ReadAPDPReg(AP reg 0x03)
T4C94 000:890.217   Value=0x34325736
T4C94 000:890.224 - 0.230ms returns 0
T4C94 000:890.229 JLINK_CORESIGHT_WriteAPDPReg(AP reg 0x00, 0x80000002)
T4C94 000:890.395 - 0.165ms returns 0
T4C94 000:890.413 JLINK_CORESIGHT_WriteAPDPReg(AP reg 0x01, 0x80011140)
T4C94 000:890.595 - 0.182ms returns 0
T4C94 000:890.613 JLINK_CORESIGHT_ReadAPDPReg(AP reg 0x03)
T4C94 000:890.847   Value=0x00000000
T4C94 000:890.857 - 0.244ms returns 0
T4C94 000:890.864 JLINK_CORESIGHT_WriteAPDPReg(AP reg 0x00, 0x80000002)
T4C94 000:891.037 - 0.172ms returns 0
T4C94 000:891.043 JLINK_CORESIGHT_WriteAPDPReg(AP reg 0x01, 0x80011130)
T4C94 000:891.210 - 0.166ms returns 0
T4C94 000:891.221 JLINK_CORESIGHT_ReadAPDPReg(AP reg 0x03)
T4C94 000:891.448   Value=0x70082D30
T4C94 000:891.458 - 0.236ms returns 0
T4C94 000:891.465 JLINK_CORESIGHT_WriteAPDPReg(AP reg 0x00, 0x80000002)
T4C94 000:891.674 - 0.208ms returns 0
T4C94 000:891.694 JLINK_CORESIGHT_WriteAPDPReg(AP reg 0x01, 0x80011140)
T4C94 000:891.871 - 0.177ms returns 0
T4C94 000:891.886 JLINK_CORESIGHT_ReadAPDPReg(AP reg 0x03)
T4C94 000:892.123   Value=0x00000000
T4C94 000:892.136 - 0.250ms returns 0
T4C94 000:892.143 JLINK_CORESIGHT_WriteAPDPReg(AP reg 0x00, 0x80000002)
T4C94 000:892.378 - 0.235ms returns 0
T4C94 000:892.385 JLINK_CORESIGHT_WriteAPDPReg(AP reg 0x01, 0x80011130)
T4C94 000:892.559 - 0.174ms returns 0
T4C94 000:892.566 JLINK_CORESIGHT_ReadAPDPReg(AP reg 0x03)
T4C94 000:892.787   Value=0x4B375268
T4C94 000:892.800 - 0.234ms returns 0
T4C94 000:892.809 JLINK_CORESIGHT_WriteAPDPReg(AP reg 0x00, 0x80000002)
T4C94 000:892.980 - 0.171ms returns 0
T4C94 000:892.992 JLINK_CORESIGHT_WriteAPDPReg(AP reg 0x01, 0x80011140)
T4C94 000:893.171 - 0.178ms returns 0
T4C94 000:893.185 JLINK_CORESIGHT_ReadAPDPReg(AP reg 0x03)
T4C94 000:893.407   Value=0x00000000
T4C94 000:893.415 - 0.230ms returns 0
T4C94 000:893.423 JLINK_CORESIGHT_WriteAPDPReg(AP reg 0x00, 0x80000002)
T4C94 000:893.597 - 0.174ms returns 0
T4C94 000:893.604 JLINK_CORESIGHT_WriteAPDPReg(AP reg 0x01, 0x80011130)
T4C94 000:893.770 - 0.166ms returns 0
T4C94 000:893.777 JLINK_CORESIGHT_ReadAPDPReg(AP reg 0x03)
T4C94 000:893.988   Value=0x31503841
T4C94 000:893.995 - 0.218ms returns 0
T4C94 000:894.001 JLINK_CORESIGHT_WriteAPDPReg(AP reg 0x00, 0x80000002)
T4C94 000:894.164 - 0.163ms returns 0
T4C94 000:894.170 JLINK_CORESIGHT_WriteAPDPReg(AP reg 0x01, 0x80011140)
T4C94 000:894.376 - 0.205ms returns 0
T4C94 000:894.382 JLINK_CORESIGHT_ReadAPDPReg(AP reg 0x03)
T4C94 000:894.594   Value=0x00000000
T4C94 000:894.601 - 0.218ms returns 0
T4C94 000:894.606 JLINK_CORESIGHT_WriteAPDPReg(AP reg 0x00, 0x80000002)
T4C94 000:894.772 - 0.166ms returns 0
T4C94 000:894.778 JLINK_CORESIGHT_WriteAPDPReg(AP reg 0x01, 0x80011130)
T4C94 000:894.944 - 0.166ms returns 0
T4C94 000:894.952 JLINK_CORESIGHT_ReadAPDPReg(AP reg 0x03)
T4C94 000:895.172   Value=0x434C464B
T4C94 000:895.179 - 0.226ms returns 0
T4C94 000:895.184 JLINK_CORESIGHT_WriteAPDPReg(AP reg 0x00, 0x80000002)
T4C94 000:895.375 - 0.191ms returns 0
T4C94 000:895.381 JLINK_CORESIGHT_WriteAPDPReg(AP reg 0x01, 0x80011140)
T4C94 000:895.547 - 0.165ms returns 0
T4C94 000:895.554 JLINK_CORESIGHT_ReadAPDPReg(AP reg 0x03)
T4C94 000:895.850   Value=0x00000000
T4C94 000:895.866 - 0.312ms returns 0
T4C94 000:895.875 JLINK_CORESIGHT_WriteAPDPReg(AP reg 0x00, 0x80000002)
T4C94 000:896.054 - 0.178ms returns 0
T4C94 000:896.067 JLINK_CORESIGHT_WriteAPDPReg(AP reg 0x01, 0x80011130)
T4C94 000:896.241 - 0.173ms returns 0
T4C94 000:896.251 JLINK_CORESIGHT_ReadAPDPReg(AP reg 0x03)
T4C94 000:896.541   Value=0x20204341
T4C94 000:896.554 - 0.302ms returns 0
T4C94 000:896.561 JLINK_CORESIGHT_WriteAPDPReg(AP reg 0x00, 0x80000002)
T4C94 000:896.734 - 0.172ms returns 0
T4C94 000:896.746 JLINK_CORESIGHT_WriteAPDPReg(AP reg 0x01, 0x80011140)
T4C94 000:896.914 - 0.168ms returns 0
T4C94 000:896.921 JLINK_CORESIGHT_ReadAPDPReg(AP reg 0x03)
T4C94 000:897.134   Value=0x00000000
T4C94 000:897.143 - 0.222ms returns 0
T4C94 000:897.151 JLINK_CORESIGHT_WriteAPDPReg(AP reg 0x00, 0x80000002)
T4C94 000:897.377 - 0.226ms returns 0
T4C94 000:897.385 JLINK_CORESIGHT_WriteAPDPReg(AP reg 0x01, 0x80011130)
T4C94 000:897.552 - 0.167ms returns 0
T4C94 000:897.559 JLINK_CORESIGHT_ReadAPDPReg(AP reg 0x03)
T4C94 000:897.775   Value=0x0003A820
T4C94 000:897.783 - 0.224ms returns 0
T4C94 000:897.859 JLINK_CORESIGHT_WriteAPDPReg(AP reg 0x00, 0x80000002)
T4C94 000:898.044 - 0.184ms returns 0
T4C94 000:898.052 JLINK_CORESIGHT_WriteAPDPReg(AP reg 0x01, 0x80011140)
T4C94 000:898.220 - 0.168ms returns 0
T4C94 000:898.228 JLINK_CORESIGHT_ReadAPDPReg(AP reg 0x03)
T4C94 000:898.449   Value=0x00000002
T4C94 000:898.456 - 0.227ms returns 0
T4C94 000:898.462 JLINK_CORESIGHT_WriteAPDPReg(AP reg 0x00, 0x80000002)
T4C94 000:898.627 - 0.164ms returns 0
T4C94 000:898.633 JLINK_CORESIGHT_WriteAPDPReg(AP reg 0x01, 0x80011120)
T4C94 000:898.798 - 0.165ms returns 0
T4C94 000:898.806 JLINK_CORESIGHT_WriteAPDPReg(AP reg 0x03, 0x39020001)
T4C94 000:898.972 - 0.166ms returns 0
T4C94 000:898.979 JLINK_CORESIGHT_WriteAPDPReg(AP reg 0x00, 0x80000002)
T4C94 000:899.146 - 0.166ms returns 0
T4C94 000:899.154 JLINK_CORESIGHT_WriteAPDPReg(AP reg 0x01, 0x80011140)
T4C94 000:899.376 - 0.222ms returns 0
T4C94 000:899.384 JLINK_CORESIGHT_ReadAPDPReg(AP reg 0x03)
T4C94 000:899.596   Value=0x00000002
T4C94 000:899.602 - 0.218ms returns 0
T4C94 000:899.608 JLINK_CORESIGHT_WriteAPDPReg(AP reg 0x00, 0x80000002)
T4C94 000:899.772 - 0.164ms returns 0
T4C94 000:899.778 JLINK_CORESIGHT_WriteAPDPReg(AP reg 0x01, 0x80011120)
T4C94 000:900.000 - 0.221ms returns 0
T4C94 000:900.013 JLINK_CORESIGHT_WriteAPDPReg(AP reg 0x03, 0x0003B312)
T4C94 000:900.192 - 0.180ms returns 0
T4C94 000:900.202 JLINK_CORESIGHT_WriteAPDPReg(AP reg 0x00, 0x80000002)
T4C94 000:900.375 - 0.173ms returns 0
T4C94 000:900.382 JLINK_CORESIGHT_WriteAPDPReg(AP reg 0x01, 0x80011140)
T4C94 000:900.547 - 0.165ms returns 0
T4C94 000:900.556 JLINK_CORESIGHT_ReadAPDPReg(AP reg 0x03)
T4C94 000:900.778   Value=0x00000000
T4C94 000:900.787 - 0.231ms returns 0
T4C94 000:900.794 JLINK_CORESIGHT_WriteAPDPReg(AP reg 0x00, 0x80000002)
T4C94 000:900.970 - 0.175ms returns 0
T4C94 000:900.978 JLINK_CORESIGHT_WriteAPDPReg(AP reg 0x01, 0x80011130)
T4C94 000:901.145 - 0.167ms returns 0
T4C94 000:901.153 JLINK_CORESIGHT_ReadAPDPReg(AP reg 0x03)
T4C94 000:901.377   Value=0xB90A0081
T4C94 000:901.385 - 0.232ms returns 0
T4C94 000:901.392 JLINK_CORESIGHT_WriteAPDPReg(AP reg 0x00, 0x80000002)
T4C94 000:901.569 - 0.176ms returns 0
T4C94 000:901.576 JLINK_CORESIGHT_WriteAPDPReg(AP reg 0x01, 0x80011140)
T4C94 000:901.744 - 0.167ms returns 0
T4C94 000:901.752 JLINK_CORESIGHT_ReadAPDPReg(AP reg 0x03)
T4C94 000:901.967   Value=0x00000000
T4C94 000:901.976 - 0.224ms returns 0
T4C94 000:901.983 JLINK_CORESIGHT_WriteAPDPReg(AP reg 0x00, 0x80000002)
T4C94 000:902.159 - 0.176ms returns 0
T4C94 000:902.166 JLINK_CORESIGHT_WriteAPDPReg(AP reg 0x01, 0x80011130)
T4C94 000:902.377 - 0.210ms returns 0
T4C94 000:902.390 JLINK_CORESIGHT_ReadAPDPReg(AP reg 0x03)
T4C94 000:902.639   Value=0xFFFFFFC0
T4C94 000:902.656 - 0.266ms returns 0
T4C94 000:902.672 JLINK_CORESIGHT_WriteAPDPReg(AP reg 0x00, 0x80000002)
T4C94 000:902.857 - 0.185ms returns 0
T4C94 000:902.868 JLINK_CORESIGHT_WriteAPDPReg(AP reg 0x01, 0x80011140)
T4C94 000:903.068 - 0.199ms returns 0
T4C94 000:903.092 JLINK_CORESIGHT_ReadAPDPReg(AP reg 0x03)
T4C94 000:903.376   Value=0x00000000
T4C94 000:903.385 - 0.292ms returns 0
T4C94 000:903.396 JLINK_CORESIGHT_WriteAPDPReg(AP reg 0x00, 0x80000002)
T4C94 000:903.586 - 0.189ms returns 0
T4C94 000:903.596 JLINK_CORESIGHT_WriteAPDPReg(AP reg 0x01, 0x80011130)
T4C94 000:903.763 - 0.167ms returns 0
T4C94 000:903.775 JLINK_CORESIGHT_ReadAPDPReg(AP reg 0x03)
T4C94 000:904.017   Value=0xFFFFFFFF
T4C94 000:904.034 - 0.259ms returns 0
T4C94 000:904.050 JLINK_CORESIGHT_WriteAPDPReg(AP reg 0x00, 0x80000002)
T4C94 000:904.229 - 0.179ms returns 0
T4C94 000:904.241 JLINK_CORESIGHT_WriteAPDPReg(AP reg 0x01, 0x80011140)
T4C94 000:904.407 - 0.166ms returns 0
T4C94 000:904.418 JLINK_CORESIGHT_ReadAPDPReg(AP reg 0x03)
T4C94 000:904.666   Value=0x00000000
T4C94 000:904.683 - 0.264ms returns 0
T4C94 000:904.698 JLINK_CORESIGHT_WriteAPDPReg(AP reg 0x00, 0x80000002)
T4C94 000:904.874 - 0.176ms returns 0
T4C94 000:904.890 JLINK_CORESIGHT_WriteAPDPReg(AP reg 0x01, 0x80011130)
T4C94 000:905.058 - 0.168ms returns 0
T4C94 000:905.069 JLINK_CORESIGHT_ReadAPDPReg(AP reg 0x03)
T4C94 000:905.286   Value=0x000385FF
T4C94 000:905.294 - 0.224ms returns 0
T4C94 000:905.758 JLINK_CORESIGHT_WriteAPDPReg(AP reg 0x00, 0x80000002)
T4C94 000:905.961 - 0.202ms returns 0
T4C94 000:905.969 JLINK_CORESIGHT_WriteAPDPReg(AP reg 0x01, 0x80011140)
T4C94 000:906.143 - 0.174ms returns 0
T4C94 000:906.151 JLINK_CORESIGHT_ReadAPDPReg(AP reg 0x03)
T4C94 000:906.385   Value=0x00000002
T4C94 000:906.409 - 0.258ms returns 0
T4C94 000:906.419 JLINK_CORESIGHT_WriteAPDPReg(AP reg 0x00, 0x80000002)
T4C94 000:906.602 - 0.183ms returns 0
T4C94 000:906.620 JLINK_CORESIGHT_WriteAPDPReg(AP reg 0x01, 0x80011120)
T4C94 000:906.807 - 0.187ms returns 0
T4C94 000:906.822 JLINK_CORESIGHT_WriteAPDPReg(AP reg 0x03, 0x2C010001)
T4C94 000:906.999 - 0.177ms returns 0
T4C94 000:907.012 JLINK_CORESIGHT_WriteAPDPReg(AP reg 0x00, 0x80000002)
T4C94 000:907.187 - 0.175ms returns 0
T4C94 000:907.196 JLINK_CORESIGHT_WriteAPDPReg(AP reg 0x01, 0x80011140)
T4C94 000:907.376 - 0.180ms returns 0
T4C94 000:907.390 JLINK_CORESIGHT_ReadAPDPReg(AP reg 0x03)
T4C94 000:907.603   Value=0x00000002
T4C94 000:907.611 - 0.221ms returns 0
T4C94 000:907.616 JLINK_CORESIGHT_WriteAPDPReg(AP reg 0x00, 0x80000002)
T4C94 000:907.803 - 0.186ms returns 0
T4C94 000:907.820 JLINK_CORESIGHT_WriteAPDPReg(AP reg 0x01, 0x80011120)
T4C94 000:908.005 - 0.184ms returns 0
T4C94 000:908.014 JLINK_CORESIGHT_WriteAPDPReg(AP reg 0x03, 0x000003D3)
T4C94 000:908.192 - 0.178ms returns 0
T4C94 000:908.206 JLINK_CORESIGHT_WriteAPDPReg(AP reg 0x00, 0x80000002)
T4C94 000:908.411 - 0.204ms returns 0
T4C94 000:908.424 JLINK_CORESIGHT_WriteAPDPReg(AP reg 0x01, 0x80011140)
T4C94 000:908.599 - 0.175ms returns 0
T4C94 000:908.610 JLINK_CORESIGHT_ReadAPDPReg(AP reg 0x03)
T4C94 000:908.825   Value=0x00000002
T4C94 000:908.834 - 0.223ms returns 0
T4C94 000:908.840 JLINK_CORESIGHT_ReadAPDPReg(AP reg 0x03)
T4C94 000:909.051   Value=0x00000002
T4C94 000:909.057 - 0.217ms returns 0
T4C94 000:909.063 JLINK_CORESIGHT_ReadAPDPReg(AP reg 0x03)
T4C94 000:909.269   Value=0x00000002
T4C94 000:909.284 - 0.221ms returns 0
T4C94 000:909.293 JLINK_CORESIGHT_ReadAPDPReg(AP reg 0x03)
T4C94 000:909.609   Value=0x00000002
T4C94 000:909.619 - 0.326ms returns 0
T4C94 000:909.627 JLINK_CORESIGHT_ReadAPDPReg(AP reg 0x03)
T4C94 000:909.853   Value=0x00000002
T4C94 000:909.869 - 0.242ms returns 0
T4C94 000:909.878 JLINK_CORESIGHT_ReadAPDPReg(AP reg 0x03)
T4C94 000:910.099   Value=0x00000002
T4C94 000:910.106 - 0.228ms returns 0
T4C94 000:910.112 JLINK_CORESIGHT_ReadAPDPReg(AP reg 0x03)
T4C94 000:910.376   Value=0x00000002
T4C94 000:910.384 - 0.272ms returns 0
T4C94 000:910.391 JLINK_CORESIGHT_ReadAPDPReg(AP reg 0x03)
T4C94 000:910.602   Value=0x00000002
T4C94 000:910.611 - 0.219ms returns 0
T4C94 000:910.617 JLINK_CORESIGHT_ReadAPDPReg(AP reg 0x03)
T4C94 000:910.831   Value=0x00000002
T4C94 000:910.840 - 0.222ms returns 0
T4C94 000:910.846 JLINK_CORESIGHT_ReadAPDPReg(AP reg 0x03)
T4C94 000:911.062   Value=0x00000002
T4C94 000:911.070 - 0.223ms returns 0
T4C94 000:911.077 JLINK_CORESIGHT_ReadAPDPReg(AP reg 0x03)
T4C94 000:911.376   Value=0x00000002
T4C94 000:911.384 - 0.307ms returns 0
T4C94 000:911.391 JLINK_CORESIGHT_ReadAPDPReg(AP reg 0x03)
T4C94 000:911.598   Value=0x00000002
T4C94 000:911.605 - 0.214ms returns 0
T4C94 000:911.610 JLINK_CORESIGHT_ReadAPDPReg(AP reg 0x03)
T4C94 000:911.812   Value=0x00000002
T4C94 000:911.819 - 0.208ms returns 0
T4C94 000:911.824 JLINK_CORESIGHT_ReadAPDPReg(AP reg 0x03)
T4C94 000:912.031   Value=0x00000000
T4C94 000:912.037 - 0.213ms returns 0
T4C94 000:912.043 JLINK_CORESIGHT_WriteAPDPReg(AP reg 0x00, 0x80000002)
T4C94 000:912.207 - 0.163ms returns 0
T4C94 000:912.213 JLINK_CORESIGHT_WriteAPDPReg(AP reg 0x01, 0x80011130)
T4C94 000:912.380 - 0.166ms returns 0
T4C94 000:912.396 JLINK_CORESIGHT_ReadAPDPReg(AP reg 0x03)
T4C94 000:912.621   Value=0x2C020081
T4C94 000:912.628 - 0.231ms returns 0
T4C94 000:912.635 JLINK_CORESIGHT_WriteAPDPReg(AP reg 0x00, 0x80000002)
T4C94 000:912.810 - 0.175ms returns 0
T4C94 000:912.817 JLINK_CORESIGHT_WriteAPDPReg(AP reg 0x01, 0x80011140)
T4C94 000:912.987 - 0.169ms returns 0
T4C94 000:912.994 JLINK_CORESIGHT_ReadAPDPReg(AP reg 0x03)
T4C94 000:913.210   Value=0x00000000
T4C94 000:913.220 - 0.225ms returns 0
T4C94 000:913.228 JLINK_CORESIGHT_WriteAPDPReg(AP reg 0x00, 0x80000002)
T4C94 000:913.401 - 0.173ms returns 0
T4C94 000:913.409 JLINK_CORESIGHT_WriteAPDPReg(AP reg 0x01, 0x80011130)
T4C94 000:913.577 - 0.167ms returns 0
T4C94 000:913.585 JLINK_CORESIGHT_ReadAPDPReg(AP reg 0x03)
T4C94 000:913.801   Value=0x0003CE04
T4C94 000:913.809 - 0.224ms returns 0
T4C94 000:913.822 JLINK_CORESIGHT_WriteAPDPReg(AP reg 0x00, 0x80000002)
T4C94 000:913.994 - 0.171ms returns 0
T4C94 000:914.000 JLINK_CORESIGHT_WriteAPDPReg(AP reg 0x01, 0x80011140)
T4C94 000:914.222 - 0.222ms returns 0
T4C94 000:914.233 JLINK_CORESIGHT_ReadAPDPReg(AP reg 0x03)
T4C94 000:914.449   Value=0x00000002
T4C94 000:914.458 - 0.225ms returns 0
T4C94 000:914.465 JLINK_CORESIGHT_WriteAPDPReg(AP reg 0x00, 0x80000002)
T4C94 000:914.639 - 0.173ms returns 0
T4C94 000:914.645 JLINK_CORESIGHT_WriteAPDPReg(AP reg 0x01, 0x80011120)
T4C94 000:914.812 - 0.166ms returns 0
T4C94 000:914.823 JLINK_CORESIGHT_WriteAPDPReg(AP reg 0x03, 0x73010001)
T4C94 000:914.994 - 0.170ms returns 0
T4C94 000:915.000 JLINK_CORESIGHT_WriteAPDPReg(AP reg 0x00, 0x80000002)
T4C94 000:915.167 - 0.166ms returns 0
T4C94 000:915.175 JLINK_CORESIGHT_WriteAPDPReg(AP reg 0x01, 0x80011140)
T4C94 000:915.377 - 0.202ms returns 0
T4C94 000:915.386 JLINK_CORESIGHT_ReadAPDPReg(AP reg 0x03)
T4C94 000:915.607   Value=0x00000002
T4C94 000:915.617 - 0.230ms returns 0
T4C94 000:915.624 JLINK_CORESIGHT_WriteAPDPReg(AP reg 0x00, 0x80000002)
T4C94 000:915.792 - 0.168ms returns 0
T4C94 000:915.800 JLINK_CORESIGHT_WriteAPDPReg(AP reg 0x01, 0x80011120)
T4C94 000:915.967 - 0.167ms returns 0
T4C94 000:915.976 JLINK_CORESIGHT_WriteAPDPReg(AP reg 0x03, 0x0000038C)
T4C94 000:916.144 - 0.168ms returns 0
T4C94 000:916.152 JLINK_CORESIGHT_WriteAPDPReg(AP reg 0x00, 0x80000002)
T4C94 000:916.377 - 0.224ms returns 0
T4C94 000:916.385 JLINK_CORESIGHT_WriteAPDPReg(AP reg 0x01, 0x80011140)
T4C94 000:916.599 - 0.214ms returns 0
T4C94 000:916.605 JLINK_CORESIGHT_ReadAPDPReg(AP reg 0x03)
T4C94 000:916.832   Value=0x00000002
T4C94 000:916.849 - 0.243ms returns 0
T4C94 000:916.858 JLINK_CORESIGHT_ReadAPDPReg(AP reg 0x03)
T4C94 000:917.082   Value=0x00000002
T4C94 000:917.091 - 0.233ms returns 0
T4C94 000:917.098 JLINK_CORESIGHT_ReadAPDPReg(AP reg 0x03)
T4C94 000:917.378   Value=0x00000002
T4C94 000:917.386 - 0.288ms returns 0
T4C94 000:917.393 JLINK_CORESIGHT_ReadAPDPReg(AP reg 0x03)
T4C94 000:917.605   Value=0x00000002
T4C94 000:917.613 - 0.219ms returns 0
T4C94 000:917.620 JLINK_CORESIGHT_ReadAPDPReg(AP reg 0x03)
T4C94 000:917.830   Value=0x00000002
T4C94 000:917.841 - 0.220ms returns 0
T4C94 000:917.848 JLINK_CORESIGHT_ReadAPDPReg(AP reg 0x03)
T4C94 000:918.060   Value=0x00000002
T4C94 000:918.069 - 0.220ms returns 0
T4C94 000:918.075 JLINK_CORESIGHT_ReadAPDPReg(AP reg 0x03)
T4C94 000:918.376   Value=0x00000002
T4C94 000:918.384 - 0.309ms returns 0
T4C94 000:918.391 JLINK_CORESIGHT_ReadAPDPReg(AP reg 0x03)
T4C94 000:918.606   Value=0x00000002
T4C94 000:918.615 - 0.224ms returns 0
T4C94 000:918.621 JLINK_CORESIGHT_ReadAPDPReg(AP reg 0x03)
T4C94 000:918.841   Value=0x00000002
T4C94 000:918.850 - 0.228ms returns 0
T4C94 000:918.857 JLINK_CORESIGHT_ReadAPDPReg(AP reg 0x03)
T4C94 000:919.070   Value=0x00000002
T4C94 000:919.078 - 0.222ms returns 0
T4C94 000:919.085 JLINK_CORESIGHT_ReadAPDPReg(AP reg 0x03)
T4C94 000:919.376   Value=0x00000000
T4C94 000:919.384 - 0.298ms returns 0
T4C94 000:919.391 JLINK_CORESIGHT_WriteAPDPReg(AP reg 0x00, 0x80000002)
T4C94 000:919.558 - 0.167ms returns 0
T4C94 000:919.565 JLINK_CORESIGHT_WriteAPDPReg(AP reg 0x01, 0x80011130)
T4C94 000:919.739 - 0.173ms returns 0
T4C94 000:919.748 JLINK_CORESIGHT_ReadAPDPReg(AP reg 0x03)
T4C94 000:919.966   Value=0x73020081
T4C94 000:919.975 - 0.227ms returns 0
T4C94 000:919.981 JLINK_CORESIGHT_WriteAPDPReg(AP reg 0x00, 0x80000002)
T4C94 000:920.157 - 0.176ms returns 0
T4C94 000:920.165 JLINK_CORESIGHT_WriteAPDPReg(AP reg 0x01, 0x80011140)
T4C94 000:920.377 - 0.211ms returns 0
T4C94 000:920.385 JLINK_CORESIGHT_ReadAPDPReg(AP reg 0x03)
T4C94 000:920.600   Value=0x00000000
T4C94 000:920.608 - 0.224ms returns 0
T4C94 000:920.615 JLINK_CORESIGHT_WriteAPDPReg(AP reg 0x00, 0x80000002)
T4C94 000:920.807 - 0.192ms returns 0
T4C94 000:920.815 JLINK_CORESIGHT_WriteAPDPReg(AP reg 0x01, 0x80011130)
T4C94 000:920.992 - 0.176ms returns 0
T4C94 000:921.003 JLINK_CORESIGHT_ReadAPDPReg(AP reg 0x03)
T4C94 000:921.229   Value=0x00038902
T4C94 000:921.236 - 0.233ms returns 0
T4C94 000:921.242 JLINK_CORESIGHT_WriteAPDPReg(AP reg 0x00, 0x80000002)
T4C94 000:921.406 - 0.164ms returns 0
T4C94 000:921.414 JLINK_CORESIGHT_WriteAPDPReg(AP reg 0x01, 0x80011140)
T4C94 000:921.579 - 0.165ms returns 0
T4C94 000:921.588 JLINK_CORESIGHT_ReadAPDPReg(AP reg 0x03)
T4C94 000:921.808   Value=0x00000002
T4C94 000:921.838 - 0.249ms returns 0
T4C94 000:921.850 JLINK_CORESIGHT_WriteAPDPReg(AP reg 0x00, 0x80000002)
T4C94 000:922.041 - 0.191ms returns 0
T4C94 000:922.054 JLINK_CORESIGHT_WriteAPDPReg(AP reg 0x01, 0x80011120)
T4C94 000:922.245 - 0.189ms returns 0
T4C94 000:922.263 JLINK_CORESIGHT_WriteAPDPReg(AP reg 0x03, 0x75010001)
T4C94 000:922.486 - 0.222ms returns 0
T4C94 000:922.495 JLINK_CORESIGHT_WriteAPDPReg(AP reg 0x00, 0x80000002)
T4C94 000:922.675 - 0.179ms returns 0
T4C94 000:922.683 JLINK_CORESIGHT_WriteAPDPReg(AP reg 0x01, 0x80011140)
T4C94 000:922.845 - 0.161ms returns 0
T4C94 000:922.858 JLINK_CORESIGHT_ReadAPDPReg(AP reg 0x03)
T4C94 000:923.129   Value=0x00000002
T4C94 000:923.136 - 0.278ms returns 0
T4C94 000:923.141 JLINK_CORESIGHT_WriteAPDPReg(AP reg 0x00, 0x80000002)
T4C94 000:923.376 - 0.234ms returns 0
T4C94 000:923.390 JLINK_CORESIGHT_WriteAPDPReg(AP reg 0x01, 0x80011120)
T4C94 000:923.576 - 0.186ms returns 0
T4C94 000:923.594 JLINK_CORESIGHT_WriteAPDPReg(AP reg 0x03, 0x0000038A)
T4C94 000:923.771 - 0.177ms returns 0
T4C94 000:923.782 JLINK_CORESIGHT_WriteAPDPReg(AP reg 0x00, 0x80000002)
T4C94 000:923.953 - 0.170ms returns 0
T4C94 000:923.963 JLINK_CORESIGHT_WriteAPDPReg(AP reg 0x01, 0x80011140)
T4C94 000:924.145 - 0.182ms returns 0
T4C94 000:924.159 JLINK_CORESIGHT_ReadAPDPReg(AP reg 0x03)
T4C94 000:924.393   Value=0x00000002
T4C94 000:924.402 - 0.242ms returns 0
T4C94 000:924.409 JLINK_CORESIGHT_ReadAPDPReg(AP reg 0x03)
T4C94 000:924.750   Value=0x00000002
T4C94 000:924.760 - 0.351ms returns 0
T4C94 000:924.767 JLINK_CORESIGHT_ReadAPDPReg(AP reg 0x03)
T4C94 000:925.016   Value=0x00000002
T4C94 000:925.033 - 0.266ms returns 0
T4C94 000:925.043 JLINK_CORESIGHT_ReadAPDPReg(AP reg 0x03)
T4C94 000:925.255   Value=0x00000000
T4C94 000:925.267 - 0.224ms returns 0
T4C94 000:925.274 JLINK_CORESIGHT_WriteAPDPReg(AP reg 0x00, 0x80000002)
T4C94 000:925.484 - 0.210ms returns 0
T4C94 000:925.495 JLINK_CORESIGHT_WriteAPDPReg(AP reg 0x01, 0x80011130)
T4C94 000:925.673 - 0.178ms returns 0
T4C94 000:925.680 JLINK_CORESIGHT_ReadAPDPReg(AP reg 0x03)
T4C94 000:925.897   Value=0x75020081
T4C94 000:925.906 - 0.226ms returns 0
T4C94 000:925.913 JLINK_CORESIGHT_WriteAPDPReg(AP reg 0x00, 0x80000002)
T4C94 000:926.170 - 0.256ms returns 0
T4C94 000:926.184 JLINK_CORESIGHT_WriteAPDPReg(AP reg 0x01, 0x80011140)
T4C94 000:926.377 - 0.192ms returns 0
T4C94 000:926.385 JLINK_CORESIGHT_ReadAPDPReg(AP reg 0x03)
T4C94 000:926.605   Value=0x00000000
T4C94 000:926.612 - 0.227ms returns 0
T4C94 000:926.618 JLINK_CORESIGHT_WriteAPDPReg(AP reg 0x00, 0x80000002)
T4C94 000:926.784 - 0.166ms returns 0
T4C94 000:926.791 JLINK_CORESIGHT_WriteAPDPReg(AP reg 0x01, 0x80011130)
T4C94 000:926.961 - 0.170ms returns 0
T4C94 000:926.974 JLINK_CORESIGHT_ReadAPDPReg(AP reg 0x03)
T4C94 000:927.190   Value=0x00038702
T4C94 000:927.199 - 0.224ms returns 0
T4C94 000:927.214 JLINK_CORESIGHT_WriteAPDPReg(AP reg 0x00, 0x80000002)
T4C94 000:927.389 - 0.175ms returns 0
T4C94 000:927.396 JLINK_CORESIGHT_WriteAPDPReg(AP reg 0x01, 0x80011140)
T4C94 000:927.566 - 0.169ms returns 0
T4C94 000:927.583 JLINK_CORESIGHT_ReadAPDPReg(AP reg 0x03)
T4C94 000:927.813   Value=0x00000002
T4C94 000:927.821 - 0.238ms returns 0
T4C94 000:927.828 JLINK_CORESIGHT_WriteAPDPReg(AP reg 0x00, 0x80000002)
T4C94 000:928.005 - 0.176ms returns 0
T4C94 000:928.012 JLINK_CORESIGHT_WriteAPDPReg(AP reg 0x01, 0x80011120)
T4C94 000:928.180 - 0.168ms returns 0
T4C94 000:928.189 JLINK_CORESIGHT_WriteAPDPReg(AP reg 0x03, 0x4F010001)
T4C94 000:928.375 - 0.186ms returns 0
T4C94 000:928.382 JLINK_CORESIGHT_WriteAPDPReg(AP reg 0x00, 0x80000002)
T4C94 000:928.547 - 0.165ms returns 0
T4C94 000:928.555 JLINK_CORESIGHT_WriteAPDPReg(AP reg 0x01, 0x80011140)
T4C94 000:928.723 - 0.168ms returns 0
T4C94 000:928.736 JLINK_CORESIGHT_ReadAPDPReg(AP reg 0x03)
T4C94 000:928.950   Value=0x00000002
T4C94 000:928.959 - 0.222ms returns 0
T4C94 000:928.965 JLINK_CORESIGHT_WriteAPDPReg(AP reg 0x00, 0x80000002)
T4C94 000:929.173 - 0.207ms returns 0
T4C94 000:929.181 JLINK_CORESIGHT_WriteAPDPReg(AP reg 0x01, 0x80011120)
T4C94 000:929.373 - 0.192ms returns 0
T4C94 000:929.382 JLINK_CORESIGHT_WriteAPDPReg(AP reg 0x03, 0x000003B0)
T4C94 000:929.563 - 0.181ms returns 0
T4C94 000:929.571 JLINK_CORESIGHT_WriteAPDPReg(AP reg 0x00, 0x80000002)
T4C94 000:929.740 - 0.169ms returns 0
T4C94 000:929.755 JLINK_CORESIGHT_WriteAPDPReg(AP reg 0x01, 0x80011140)
T4C94 000:930.021 - 0.266ms returns 0
T4C94 000:930.031 JLINK_CORESIGHT_ReadAPDPReg(AP reg 0x03)
T4C94 000:930.254   Value=0x00000002
T4C94 000:930.262 - 0.231ms returns 0
T4C94 000:930.269 JLINK_CORESIGHT_ReadAPDPReg(AP reg 0x03)
T4C94 000:930.531   Value=0x00000002
T4C94 000:930.541 - 0.271ms returns 0
T4C94 000:930.548 JLINK_CORESIGHT_ReadAPDPReg(AP reg 0x03)
T4C94 000:930.774   Value=0x00000002
T4C94 000:930.784 - 0.235ms returns 0
T4C94 000:930.800 JLINK_CORESIGHT_ReadAPDPReg(AP reg 0x03)
T4C94 000:931.013   Value=0x00000002
T4C94 000:931.019 - 0.219ms returns 0
T4C94 000:931.029 JLINK_CORESIGHT_ReadAPDPReg(AP reg 0x03)
T4C94 000:931.243   Value=0x00000002
T4C94 000:931.250 - 0.220ms returns 0
T4C94 000:931.258 JLINK_CORESIGHT_ReadAPDPReg(AP reg 0x03)
T4C94 000:931.530   Value=0x00000002
T4C94 000:931.536 - 0.278ms returns 0
T4C94 000:931.544 JLINK_CORESIGHT_ReadAPDPReg(AP reg 0x03)
T4C94 000:931.757   Value=0x00000002
T4C94 000:931.763 - 0.219ms returns 0
T4C94 000:931.771 JLINK_CORESIGHT_ReadAPDPReg(AP reg 0x03)
T4C94 000:931.991   Value=0x00000002
T4C94 000:932.001 - 0.230ms returns 0
T4C94 000:932.012 JLINK_CORESIGHT_ReadAPDPReg(AP reg 0x03)
T4C94 000:932.224   Value=0x00000002
T4C94 000:932.233 - 0.221ms returns 0
T4C94 000:932.245 JLINK_CORESIGHT_ReadAPDPReg(AP reg 0x03)
T4C94 000:932.456   Value=0x00000002
T4C94 000:932.465 - 0.220ms returns 0
T4C94 000:932.477 JLINK_CORESIGHT_ReadAPDPReg(AP reg 0x03)
T4C94 000:932.689   Value=0x00000000
T4C94 000:932.698 - 0.222ms returns 0
T4C94 000:932.710 JLINK_CORESIGHT_WriteAPDPReg(AP reg 0x00, 0x80000002)
T4C94 000:932.886 - 0.175ms returns 0
T4C94 000:932.897 JLINK_CORESIGHT_WriteAPDPReg(AP reg 0x01, 0x80011130)
T4C94 000:933.072 - 0.174ms returns 0
T4C94 000:933.093 JLINK_CORESIGHT_ReadAPDPReg(AP reg 0x03)
T4C94 000:933.373   Value=0x4F0B0081
T4C94 000:933.383 - 0.290ms returns 0
T4C94 000:933.393 JLINK_CORESIGHT_WriteAPDPReg(AP reg 0x00, 0x80000002)
T4C94 000:933.566 - 0.173ms returns 0
T4C94 000:933.582 JLINK_CORESIGHT_WriteAPDPReg(AP reg 0x01, 0x80011140)
T4C94 000:933.748 - 0.166ms returns 0
T4C94 000:933.759 JLINK_CORESIGHT_ReadAPDPReg(AP reg 0x03)
T4C94 000:933.981   Value=0x00000000
T4C94 000:933.990 - 0.230ms returns 0
T4C94 000:933.999 JLINK_CORESIGHT_WriteAPDPReg(AP reg 0x00, 0x80000002)
T4C94 000:934.167 - 0.168ms returns 0
T4C94 000:934.176 JLINK_CORESIGHT_WriteAPDPReg(AP reg 0x01, 0x80011130)
T4C94 000:934.376 - 0.199ms returns 0
T4C94 000:934.384 JLINK_CORESIGHT_ReadAPDPReg(AP reg 0x03)
T4C94 000:934.597   Value=0xC0020000
T4C94 000:934.613 - 0.228ms returns 0
T4C94 000:934.626 JLINK_CORESIGHT_WriteAPDPReg(AP reg 0x00, 0x80000002)
T4C94 000:934.788 - 0.161ms returns 0
T4C94 000:934.797 JLINK_CORESIGHT_WriteAPDPReg(AP reg 0x01, 0x80011140)
T4C94 000:934.961 - 0.164ms returns 0
T4C94 000:934.970 JLINK_CORESIGHT_ReadAPDPReg(AP reg 0x03)
T4C94 000:935.187   Value=0x00000000
T4C94 000:935.194 - 0.223ms returns 0
T4C94 000:935.208 JLINK_CORESIGHT_WriteAPDPReg(AP reg 0x00, 0x80000002)
T4C94 000:935.375 - 0.167ms returns 0
T4C94 000:935.383 JLINK_CORESIGHT_WriteAPDPReg(AP reg 0x01, 0x80011130)
T4C94 000:935.548 - 0.164ms returns 0
T4C94 000:935.559 JLINK_CORESIGHT_ReadAPDPReg(AP reg 0x03)
T4C94 000:935.783   Value=0x00000000
T4C94 000:935.791 - 0.232ms returns 0
T4C94 000:935.802 JLINK_CORESIGHT_WriteAPDPReg(AP reg 0x00, 0x80000002)
T4C94 000:935.974 - 0.172ms returns 0
T4C94 000:935.985 JLINK_CORESIGHT_WriteAPDPReg(AP reg 0x01, 0x80011140)
T4C94 000:936.152 - 0.166ms returns 0
T4C94 000:936.163 JLINK_CORESIGHT_ReadAPDPReg(AP reg 0x03)
T4C94 000:936.385   Value=0x00000000
T4C94 000:936.393 - 0.230ms returns 0
T4C94 000:936.404 JLINK_CORESIGHT_WriteAPDPReg(AP reg 0x00, 0x80000002)
T4C94 000:936.571 - 0.167ms returns 0
T4C94 000:936.582 JLINK_CORESIGHT_WriteAPDPReg(AP reg 0x01, 0x80011130)
T4C94 000:936.753 - 0.171ms returns 0
T4C94 000:936.763 JLINK_CORESIGHT_ReadAPDPReg(AP reg 0x03)
T4C94 000:936.977   Value=0x03E40000
T4C94 000:936.985 - 0.222ms returns 0
T4C94 000:937.372 JLINK_CORESIGHT_WriteAPDPReg(AP reg 0x00, 0x80000002)
T4C94 000:937.552 - 0.180ms returns 0
T4C94 000:937.563 JLINK_CORESIGHT_WriteAPDPReg(AP reg 0x01, 0x80011140)
T4C94 000:937.740 - 0.176ms returns 0
T4C94 000:937.748 JLINK_CORESIGHT_ReadAPDPReg(AP reg 0x03)
T4C94 000:937.989   Value=0x00000002
T4C94 000:938.007 - 0.258ms returns 0
T4C94 000:938.018 JLINK_CORESIGHT_WriteAPDPReg(AP reg 0x00, 0x80000002)
T4C94 000:938.210 - 0.191ms returns 0
T4C94 000:938.229 JLINK_CORESIGHT_WriteAPDPReg(AP reg 0x01, 0x80011120)
T4C94 000:938.413 - 0.184ms returns 0
T4C94 000:938.427 JLINK_CORESIGHT_WriteAPDPReg(AP reg 0x03, 0x2C010001)
T4C94 000:938.615 - 0.188ms returns 0
T4C94 000:938.632 JLINK_CORESIGHT_WriteAPDPReg(AP reg 0x00, 0x80000002)
T4C94 000:938.804 - 0.172ms returns 0
T4C94 000:938.813 JLINK_CORESIGHT_WriteAPDPReg(AP reg 0x01, 0x80011140)
T4C94 000:938.983 - 0.170ms returns 0
T4C94 000:938.990 JLINK_CORESIGHT_ReadAPDPReg(AP reg 0x03)
T4C94 000:939.204   Value=0x00000002
T4C94 000:939.211 - 0.221ms returns 0
T4C94 000:939.217 JLINK_CORESIGHT_WriteAPDPReg(AP reg 0x00, 0x80000002)
T4C94 000:939.377 - 0.160ms returns 0
T4C94 000:939.391 JLINK_CORESIGHT_WriteAPDPReg(AP reg 0x01, 0x80011120)
T4C94 000:939.564 - 0.172ms returns 0
T4C94 000:939.571 JLINK_CORESIGHT_WriteAPDPReg(AP reg 0x03, 0x000003D3)
T4C94 000:939.750 - 0.178ms returns 0
T4C94 000:939.763 JLINK_CORESIGHT_WriteAPDPReg(AP reg 0x00, 0x80000002)
T4C94 000:939.942 - 0.179ms returns 0
T4C94 000:939.949 JLINK_CORESIGHT_WriteAPDPReg(AP reg 0x01, 0x80011140)
T4C94 000:940.116 - 0.166ms returns 0
T4C94 000:940.123 JLINK_CORESIGHT_ReadAPDPReg(AP reg 0x03)
T4C94 000:940.377   Value=0x00000000
T4C94 000:940.386 - 0.262ms returns 0
T4C94 000:940.393 JLINK_CORESIGHT_WriteAPDPReg(AP reg 0x00, 0x80000002)
T4C94 000:940.568 - 0.175ms returns 0
T4C94 000:940.576 JLINK_CORESIGHT_WriteAPDPReg(AP reg 0x01, 0x80011130)
T4C94 000:940.743 - 0.167ms returns 0
T4C94 000:940.750 JLINK_CORESIGHT_ReadAPDPReg(AP reg 0x03)
T4C94 000:940.964   Value=0x2C020081
T4C94 000:940.973 - 0.223ms returns 0
T4C94 000:940.980 JLINK_CORESIGHT_WriteAPDPReg(AP reg 0x00, 0x80000002)
T4C94 000:941.156 - 0.176ms returns 0
T4C94 000:941.164 JLINK_CORESIGHT_WriteAPDPReg(AP reg 0x01, 0x80011140)
T4C94 000:941.376 - 0.212ms returns 0
T4C94 000:941.382 JLINK_CORESIGHT_ReadAPDPReg(AP reg 0x03)
T4C94 000:941.680   Value=0x00000000
T4C94 000:941.695 - 0.312ms returns 0
T4C94 000:941.704 JLINK_CORESIGHT_WriteAPDPReg(AP reg 0x00, 0x80000002)
T4C94 000:941.874 - 0.170ms returns 0
T4C94 000:941.883 JLINK_CORESIGHT_WriteAPDPReg(AP reg 0x01, 0x80011130)
T4C94 000:942.052 - 0.169ms returns 0
T4C94 000:942.060 JLINK_CORESIGHT_ReadAPDPReg(AP reg 0x03)
T4C94 000:942.277   Value=0x0003CE04
T4C94 000:942.288 - 0.227ms returns 0
T4C94 000:942.302 JLINK_CORESIGHT_WriteAPDPReg(AP reg 0x00, 0x80000002)
T4C94 000:942.486 - 0.184ms returns 0
T4C94 000:942.494 JLINK_CORESIGHT_WriteAPDPReg(AP reg 0x01, 0x80011140)
T4C94 000:942.664 - 0.169ms returns 0
T4C94 000:942.673 JLINK_CORESIGHT_ReadAPDPReg(AP reg 0x03)
T4C94 000:942.887   Value=0x00000002
T4C94 000:942.894 - 0.222ms returns 0
T4C94 000:942.900 JLINK_CORESIGHT_WriteAPDPReg(AP reg 0x00, 0x80000002)
T4C94 000:943.065 - 0.165ms returns 0
T4C94 000:943.072 JLINK_CORESIGHT_WriteAPDPReg(AP reg 0x01, 0x80011120)
T4C94 000:943.238 - 0.166ms returns 0
T4C94 000:943.246 JLINK_CORESIGHT_WriteAPDPReg(AP reg 0x03, 0x73010001)
T4C94 000:943.488 - 0.241ms returns 0
T4C94 000:943.500 JLINK_CORESIGHT_WriteAPDPReg(AP reg 0x00, 0x80000002)
T4C94 000:943.672 - 0.172ms returns 0
T4C94 000:943.679 JLINK_CORESIGHT_WriteAPDPReg(AP reg 0x01, 0x80011140)
T4C94 000:943.854 - 0.174ms returns 0
T4C94 000:943.860 JLINK_CORESIGHT_ReadAPDPReg(AP reg 0x03)
T4C94 000:944.074   Value=0x00000002
T4C94 000:944.083 - 0.223ms returns 0
T4C94 000:944.091 JLINK_CORESIGHT_WriteAPDPReg(AP reg 0x00, 0x80000002)
T4C94 000:944.261 - 0.170ms returns 0
T4C94 000:944.268 JLINK_CORESIGHT_WriteAPDPReg(AP reg 0x01, 0x80011120)
T4C94 000:944.491 - 0.222ms returns 0
T4C94 000:944.500 JLINK_CORESIGHT_WriteAPDPReg(AP reg 0x03, 0x0000038C)
T4C94 000:944.669 - 0.169ms returns 0
T4C94 000:944.676 JLINK_CORESIGHT_WriteAPDPReg(AP reg 0x00, 0x80000002)
T4C94 000:944.840 - 0.164ms returns 0
T4C94 000:944.847 JLINK_CORESIGHT_WriteAPDPReg(AP reg 0x01, 0x80011140)
T4C94 000:945.013 - 0.166ms returns 0
T4C94 000:945.022 JLINK_CORESIGHT_ReadAPDPReg(AP reg 0x03)
T4C94 000:945.239   Value=0x00000002
T4C94 000:945.246 - 0.223ms returns 0
T4C94 000:945.251 JLINK_CORESIGHT_ReadAPDPReg(AP reg 0x03)
T4C94 000:945.529   Value=0x00000002
T4C94 000:945.536 - 0.284ms returns 0
T4C94 000:945.541 JLINK_CORESIGHT_ReadAPDPReg(AP reg 0x03)
T4C94 000:945.830   Value=0x00000002
T4C94 000:945.914 - 0.373ms returns 0
T4C94 000:945.923 JLINK_CORESIGHT_ReadAPDPReg(AP reg 0x03)
T4C94 000:946.148   Value=0x00000002
T4C94 000:946.159 - 0.236ms returns 0
T4C94 000:946.167 JLINK_CORESIGHT_ReadAPDPReg(AP reg 0x03)
T4C94 000:946.377   Value=0x00000002
T4C94 000:946.386 - 0.218ms returns 0
T4C94 000:946.393 JLINK_CORESIGHT_ReadAPDPReg(AP reg 0x03)
T4C94 000:946.611   Value=0x00000002
T4C94 000:946.620 - 0.227ms returns 0
